T0D98 20952:235 SEGGER J-Link V5.02c Log File (0001ms, 70922ms total)
T0D98 20952:235 DLL Compiled: Sep 10 2015 17:39:31 (0001ms, 70922ms total)
T0D98 20952:235 Logging started @ 2020-11-06 15:22 (0001ms, 70922ms total)
T0D98 20952:236 JLINK_SetWarnOutHandler(...) (0000ms, 70922ms total)
T0D98 20952:236 JLINK_OpenEx(...)
Firmware: J-Link ARM-OB STM32 compiled Aug 22 2012 19:52:04
Hardware: V7.00
S/N: 20120928
Feature(s): RDI,FlashDL,FlashBP,JFlash,GDBFullDevice "CORTEX-M0" selected.  returns O.K. (0032ms, 70954ms total)
T0D98 20952:268 JLINK_GetEmuCaps()  returns 0xC8EA5873 (0000ms, 70954ms total)
T0D98 20952:268 JLINK_TIF_GetAvailable(...) (0002ms, 70956ms total)
T0D98 20952:271 JLINK_SetErrorOutHandler(...) (0000ms, 70956ms total)
T0D98 20952:271 JLINK_ExecCommand("ProjectFile = "E:\SDK\Git SDK\SYD8811 SDK\Source Code\SYD8811_ble_mtu_peripheral\1.SYD8811_MTU\Keil\JLinkSettings.ini"", ...)Device "CORTEX-M0" selected.  returns 0x00 (0006ms, 70962ms total)
T0D98 20952:279 JLINK_ExecCommand("Device = ARMCM0", ...)Device "CORTEX-M0" selected.  returns 0x00 (0002ms, 70964ms total)
T0D98 20952:281 JLINK_ExecCommand("DisableConnectionTimeout", ...)  returns 0x01 (0000ms, 70964ms total)
T0D98 20952:281 JLINK_GetHardwareVersion()  returns 0x11170 (0000ms, 70964ms total)
T0D98 20952:281 JLINK_GetDLLVersion()  returns 50203 (0000ms, 70964ms total)
T0D98 20952:281 JLINK_GetFirmwareString(...) (0000ms, 70964ms total)
T0D98 20952:287 JLINK_GetDLLVersion()  returns 50203 (0000ms, 70964ms total)
T0D98 20952:287 JLINK_GetCompileDateTime() (0000ms, 70964ms total)
T0D98 20952:289 JLINK_GetFirmwareString(...) (0000ms, 70964ms total)
T0D98 20952:291 JLINK_GetHardwareVersion()  returns 0x11170 (0000ms, 70964ms total)
T0D98 20952:299 JLINK_TIF_Select(JLINKARM_TIF_SWD)  returns 0x00 (0004ms, 70968ms total)
T0D98 20952:303 JLINK_SetSpeed(50000) (0005ms, 70973ms total)
T0D98 20952:308 JLINK_GetId() >0x108 TIF>Found SWD-DP with ID 0x0BB11477 >0x0D TIF> >0x21 TIF> >0x0D TIF> >0x28 TIF> >0x0D TIF> >0x28 TIF> >0x0D TIF> >0x21 TIF> >0x0D TIF> >0x28 TIF> >0x0D TIF> >0x21 TIF> >0x0D TIF> >0x21 TIF> >0x0D TIF> >0x21 TIF> >0x0D TIF> >0x21 TIF> >0x0D TIF> >0x28 TIF> >0x0D TIF> >0x28 TIF> >0x0D TIF> >0x21 TIF> >0x0D TIF> >0x28 TIF> >0x0D TIF> >0x28 TIF> >0x0D TIF> >0x28 TIF> >0x0D TIF> >0x21 TIF> >0x0D TIF> >0x21 TIF> >0x0D TIF> >0x28 TIF> >0x0D TIF> >0x21 TIF> >0x0D TIF>
 >0x21 TIF>Found Cortex-M0 r0p0, Little endian. -- CPU_ReadMem(4 bytes @ 0xE000EDF0) -- CPU_ReadMem(4 bytes @ 0xE0002000)FPUnit: 4 code (BP) slots and 0 literal slots -- CPU_ReadMem(4 bytes @ 0xE000EDFC) -- CPU_ReadMem(4 bytes @ 0xE0001000) -- CPU_WriteMem(4 bytes @ 0xE0001000)CoreSight components:ROMTbl 0 @ E00FF000 -- CPU_ReadMem(16 bytes @ 0xE00FF000) -- CPU_ReadMem(16 bytes @ 0xE000EFF0) -- CPU_ReadMem(16 bytes @ 0xE000EFE0)ROMTbl 0 [0]: FFF0F000, CID: B105E00D, PID: 000BB008 SCS
 -- CPU_ReadMem(16 bytes @ 0xE0001FF0) -- CPU_ReadMem(16 bytes @ 0xE0001FE0)ROMTbl 0 [1]: FFF02000, CID: B105E00D, PID: 000BB00A DWT -- CPU_ReadMem(16 bytes @ 0xE0002FF0) -- CPU_ReadMem(16 bytes @ 0xE0002FE0)ROMTbl 0 [2]: FFF03000, CID: B105E00D, PID: 000BB00B FPB >0x0D TIF> >0x21 TIF>  returns 0x0BB11477 (0082ms, 71055ms total)
T0D98 20952:390 JLINK_GetDLLVersion()  returns 50203 (0000ms, 71055ms total)
T0D98 20952:390 JLINK_CORE_GetFound()  returns 0x60000FF (0002ms, 71057ms total)
T0D98 20952:392 JLINK_GetDebugInfo(0x100) -- Value=0xE00FF003  returns 0x00 (0000ms, 71057ms total)
T0D98 20952:394 JLINK_GetDebugInfo(0x100) -- Value=0xE00FF003  returns 0x00 (0000ms, 71057ms total)
T0D98 20952:394 JLINK_GetDebugInfo(0x101)  returns 0xFFFFFFFF (0000ms, 71057ms total)
T0D98 20952:394 JLINK_ReadMemEx(0xE0041FF0, 0x0010 Bytes, ..., AccessWidth = 33554436) -- CPU is running -- CPU_ReadMem(16 bytes @ 0xE0041FF0) - Data: 00 00 00 00 00 00 00 00 00 00 00 00 00 00 00 00  returns 0x10 (0002ms, 71059ms total)
T0D98 20952:396 JLINK_GetDebugInfo(0x102)  returns 0xFFFFFFFF (0000ms, 71059ms total)
T0D98 20952:396 JLINK_GetDebugInfo(0x103)  returns 0xFFFFFFFF (0000ms, 71059ms total)
T0D98 20952:396 JLINK_ReadMemEx(0xE0040FF0, 0x0010 Bytes, ..., AccessWidth = 33554436) -- CPU is running -- CPU_ReadMem(16 bytes @ 0xE0040FF0) - Data: 00 00 00 00 00 00 00 00 00 00 00 00 00 00 00 00  returns 0x10 (0001ms, 71060ms total)
T0D98 20952:397 JLINK_GetDebugInfo(0x104)  returns 0xFFFFFFFF (0000ms, 71060ms total)
T0D98 20952:397 JLINK_GetDebugInfo(0x105)  returns 0xFFFFFFFF (0000ms, 71060ms total)
T0D98 20952:397 JLINK_GetDebugInfo(0x106)  returns 0xFFFFFFFF (0000ms, 71060ms total)
T0D98 20952:397 JLINK_GetDebugInfo(0x107)  returns 0xFFFFFFFF (0000ms, 71060ms total)
T0D98 20952:397 JLINK_GetDebugInfo(0x10C)  returns 0xFFFFFFFF (0000ms, 71060ms total)
T0D98 20952:397 JLINK_GetDebugInfo(0x01)  returns 0xFFFFFFFF (0000ms, 71060ms total)
T0D98 20952:397 JLINK_GetDeviceFamily()  returns 6 (0000ms, 71060ms total)
T0D98 20952:397 JLINK_ReadMemU32(0xE000ED00, 0x0001 Items, ...) -- CPU is running -- CPU_ReadMem(4 bytes @ 0xE000ED00) - Data: 00 C2 0C 41  returns 0x01 (0001ms, 71061ms total)
T0D98 20952:398 JLINK_GetDebugInfo(0x10F)  returns 0xFFFFFFFF (0000ms, 71061ms total)
T0D98 20952:398 JLINK_SetResetType(JLINKARM_RESET_TYPE_NORMAL)  returns JLINKARM_RESET_TYPE_NORMAL (0000ms, 71061ms total)
T0D98 20952:398 JLINK_Reset() -- CPU is running -- CPU_WriteMem(4 bytes @ 0xE000EDF0) -- CPU is running -- CPU_WriteMem(4 bytes @ 0xE000EDFC) >0x35 TIF> -- CPU is running -- CPU_WriteMem(4 bytes @ 0xE000ED0C) -- CPU is running -- CPU_ReadMem(4 bytes @ 0xE000EDF0) -- CPU is running -- CPU_ReadMem(4 bytes @ 0xE000EDF0) -- CPU is running -- CPU_WriteMem(4 bytes @ 0xE000EDF0) -- CPU is running -- CPU_WriteMem(4 bytes @ 0xE000EDFC) -- CPU is running -- CPU_ReadMem(4 bytes @ 0xE000EDF0)
 -- CPU_WriteMem(4 bytes @ 0xE0002000) -- CPU_ReadMem(4 bytes @ 0xE000EDFC) -- CPU_ReadMem(4 bytes @ 0xE0001000) -- CPU_WriteMem(4 bytes @ 0xE0001000) (0025ms, 71086ms total)
T0D98 20952:423 JLINK_Halt()  returns 0x00 (0000ms, 71086ms total)
T0D98 20952:423 JLINK_ReadMemU32(0xE000EDF0, 0x0001 Items, ...) -- CPU_ReadMem(4 bytes @ 0xE000EDF0) - Data: 03 00 03 00  returns 0x01 (0003ms, 71089ms total)
T0D98 20952:426 JLINK_WriteU32(0xE000EDF0, 0xA05F0003) -- CPU_WriteMem(4 bytes @ 0xE000EDF0)  returns 0x00 (0002ms, 71091ms total)
T0D98 20952:428 JLINK_WriteU32(0xE000EDFC, 0x01000000) -- CPU_WriteMem(4 bytes @ 0xE000EDFC)  returns 0x00 (0001ms, 71092ms total)
T0D98 20952:453 JLINK_GetHWStatus(...)  returns 0x00 (0002ms, 71094ms total)
T0D98 20952:460 JLINK_GetNumBPUnits(Type = 0xFFFFFF00)  returns 0x04 (0000ms, 71094ms total)
T0D98 20952:460 JLINK_GetNumBPUnits(Type = 0xF0)  returns 0x2000 (0000ms, 71094ms total)
T0D98 20952:460 JLINK_GetNumWPUnits()  returns 0x02 (0000ms, 71094ms total)
T0D98 20952:466 JLINK_GetSpeed()  returns 0xFA0 (0000ms, 71094ms total)
T0D98 20952:469 JLINK_ReadMemU32(0xE000E004, 0x0001 Items, ...) -- CPU_ReadMem(4 bytes @ 0xE000E004) - Data: 00 00 00 00  returns 0x01 (0001ms, 71095ms total)
T0D98 20952:470 JLINK_Halt()  returns 0x00 (0000ms, 71095ms total)
T0D98 20952:470 JLINK_IsHalted()  returns TRUE (0000ms, 71095ms total)
T0D98 20952:473 JLINK_WriteMem(0x20000000, 0x0E40 Bytes, ...) - Data: 00 BE 0A E0 0D 78 2D 06 68 40 08 24 40 00 00 D3 ... -- CPU_WriteMem(3648 bytes @ 0x20000000)  returns 0xE40 (0043ms, 71138ms total)
T0D98 20952:516 JLINK_WriteReg(R0, 0x10000000)  returns 0x00 (0000ms, 71138ms total)
T0D98 20952:517 JLINK_WriteReg(R1, 0x00989680)  returns 0x00 (0000ms, 71139ms total)
T0D98 20952:517 JLINK_WriteReg(R2, 0x00000001)  returns 0x00 (0000ms, 71139ms total)
T0D98 20952:517 JLINK_WriteReg(R3, 0x00000000)  returns 0x00 (0000ms, 71139ms total)
T0D98 20952:517 JLINK_WriteReg(R4, 0x00000000)  returns 0x00 (0000ms, 71139ms total)
T0D98 20952:517 JLINK_WriteReg(R5, 0x00000000)  returns 0x00 (0000ms, 71139ms total)
T0D98 20952:517 JLINK_WriteReg(R6, 0x00000000)  returns 0x00 (0000ms, 71139ms total)
T0D98 20952:517 JLINK_WriteReg(R7, 0x00000000)  returns 0x00 (0000ms, 71139ms total)
T0D98 20952:517 JLINK_WriteReg(R8, 0x00000000)  returns 0x00 (0000ms, 71139ms total)
T0D98 20952:517 JLINK_WriteReg(R9, 0x20000E10)  returns 0x00 (0001ms, 71140ms total)
T0D98 20952:518 JLINK_WriteReg(R10, 0x00000000)  returns 0x00 (0000ms, 71140ms total)
T0D98 20952:518 JLINK_WriteReg(R11, 0x00000000)  returns 0x00 (0000ms, 71140ms total)
T0D98 20952:518 JLINK_WriteReg(R12, 0x00000000)  returns 0x00 (0000ms, 71140ms total)
T0D98 20952:518 JLINK_WriteReg(R13 (SP), 0x20005000)  returns 0x00 (0000ms, 71140ms total)
T0D98 20952:518 JLINK_WriteReg(R14, 0x20000001)  returns 0x00 (0000ms, 71140ms total)
T0D98 20952:518 JLINK_WriteReg(R15 (PC), 0x20000134)  returns 0x00 (0000ms, 71140ms total)
T0D98 20952:518 JLINK_WriteReg(XPSR, 0x01000000)  returns 0x00 (0000ms, 71140ms total)
T0D98 20952:518 JLINK_WriteReg(MSP, 0x20005000)  returns 0x00 (0001ms, 71141ms total)
T0D98 20952:519 JLINK_WriteReg(PSP, 0x20005000)  returns 0x00 (0000ms, 71141ms total)
T0D98 20952:519 JLINK_WriteReg(CFBP, 0x00000000)  returns 0x00 (0000ms, 71141ms total)
T0D98 20952:519 JLINK_SetBPEx(Addr = 0x20000000, Type = 0xFFFFFFF2) -- CPU_ReadMem(4 bytes @ 0x20000000) -- CPU_WriteMem(4 bytes @ 0x20000000) -- CPU_ReadMem(4 bytes @ 0x20000000) -- CPU_WriteMem(4 bytes @ 0x20000000) -- CPU_ReadMem(2 bytes @ 0x20000000)  returns 0x00000001 (0005ms, 71146ms total)
T0D98 20952:525 JLINK_Go() -- CPU_WriteMem(2 bytes @ 0x20000000) -- CPU_ReadMem(4 bytes @ 0xE0001000) -- CPU_WriteMem(4 bytes @ 0xE0001000) -- CPU_WriteMem(4 bytes @ 0xE0002008) -- CPU_WriteMem(4 bytes @ 0xE000200C) -- CPU_WriteMem(4 bytes @ 0xE0002010) -- CPU_WriteMem(4 bytes @ 0xE0002014) -- CPU_WriteMem(4 bytes @ 0xE0001004) (0011ms, 71158ms total)
T0D98 20952:536 JLINK_IsHalted() -- CPU_ReadMem(2 bytes @ 0x20000000)  returns TRUE (0006ms, 71164ms total)
T0D98 20952:542 JLINK_ReadReg(R15 (PC))  returns 0x20000000 (0000ms, 71158ms total)
T0D98 20952:542 JLINK_ClrBPEx(BPHandle = 0x00000001)  returns 0x00 (0000ms, 71158ms total)
T0D98 20952:542 JLINK_ReadReg(R0)  returns 0x00000000 (0000ms, 71158ms total)
T0D98 20952:542 JLINK_WriteReg(R0, 0x10000000)  returns 0x00 (0000ms, 71158ms total)
T0D98 20952:542 JLINK_WriteReg(R1, 0x00001000)  returns 0x00 (0000ms, 71158ms total)
T0D98 20952:542 JLINK_WriteReg(R2, 0x000000FF)  returns 0x00 (0000ms, 71158ms total)
T0D98 20952:542 JLINK_WriteReg(R3, 0x00000000)  returns 0x00 (0000ms, 71158ms total)
T0D98 20952:542 JLINK_WriteReg(R4, 0x00000000)  returns 0x00 (0000ms, 71158ms total)
T0D98 20952:542 JLINK_WriteReg(R5, 0x00000000)  returns 0x00 (0000ms, 71158ms total)
T0D98 20952:542 JLINK_WriteReg(R6, 0x00000000)  returns 0x00 (0000ms, 71158ms total)
T0D98 20952:542 JLINK_WriteReg(R7, 0x00000000)  returns 0x00 (0001ms, 71159ms total)
T0D98 20952:543 JLINK_WriteReg(R8, 0x00000000)  returns 0x00 (0000ms, 71159ms total)
T0D98 20952:543 JLINK_WriteReg(R9, 0x20000E10)  returns 0x00 (0000ms, 71159ms total)
T0D98 20952:543 JLINK_WriteReg(R10, 0x00000000)  returns 0x00 (0000ms, 71159ms total)
T0D98 20952:543 JLINK_WriteReg(R11, 0x00000000)  returns 0x00 (0000ms, 71159ms total)
T0D98 20952:543 JLINK_WriteReg(R12, 0x00000000)  returns 0x00 (0000ms, 71159ms total)
T0D98 20952:543 JLINK_WriteReg(R13 (SP), 0x20005000)  returns 0x00 (0000ms, 71159ms total)
T0D98 20952:543 JLINK_WriteReg(R14, 0x20000001)  returns 0x00 (0000ms, 71159ms total)
T0D98 20952:543 JLINK_WriteReg(R15 (PC), 0x20000020)  returns 0x00 (0000ms, 71159ms total)
T0D98 20952:543 JLINK_WriteReg(XPSR, 0x01000000)  returns 0x00 (0000ms, 71159ms total)
T0D98 20952:543 JLINK_WriteReg(MSP, 0x20005000)  returns 0x00 (0000ms, 71159ms total)
T0D98 20952:543 JLINK_WriteReg(PSP, 0x20005000)  returns 0x00 (0000ms, 71159ms total)
T0D98 20952:543 JLINK_WriteReg(CFBP, 0x00000000)  returns 0x00 (0000ms, 71159ms total)
T0D98 20952:543 JLINK_SetBPEx(Addr = 0x20000000, Type = 0xFFFFFFF2)  returns 0x00000002 (0000ms, 71159ms total)
T0D98 20952:543 JLINK_Go() -- CPU_ReadMem(4 bytes @ 0xE0001000) -- CPU_WriteMem(4 bytes @ 0xE0001000) (0005ms, 71164ms total)
T0D98 20952:548 JLINK_IsHalted() -- CPU_ReadMem(2 bytes @ 0x20000000)  returns TRUE (0006ms, 71170ms total)
T0D98 20952:554 JLINK_ReadReg(R15 (PC))  returns 0x20000000 (0000ms, 71164ms total)
T0D98 20952:554 JLINK_ClrBPEx(BPHandle = 0x00000002)  returns 0x00 (0000ms, 71164ms total)
T0D98 20952:554 JLINK_ReadReg(R0)  returns 0x00000001 (0000ms, 71164ms total)
T0D98 20952:554 JLINK_WriteReg(R0, 0x10000000)  returns 0x00 (0000ms, 71164ms total)
T0D98 20952:554 JLINK_WriteReg(R1, 0x00001000)  returns 0x00 (0000ms, 71164ms total)
T0D98 20952:554 JLINK_WriteReg(R2, 0x000000FF)  returns 0x00 (0000ms, 71164ms total)
T0D98 20952:554 JLINK_WriteReg(R3, 0x00000000)  returns 0x00 (0000ms, 71164ms total)
T0D98 20952:554 JLINK_WriteReg(R4, 0x00000000)  returns 0x00 (0000ms, 71164ms total)
T0D98 20952:554 JLINK_WriteReg(R5, 0x00000000)  returns 0x00 (0000ms, 71164ms total)
T0D98 20952:554 JLINK_WriteReg(R6, 0x00000000)  returns 0x00 (0000ms, 71164ms total)
T0D98 20952:554 JLINK_WriteReg(R7, 0x00000000)  returns 0x00 (0000ms, 71164ms total)
T0D98 20952:554 JLINK_WriteReg(R8, 0x00000000)  returns 0x00 (0000ms, 71164ms total)
T0D98 20952:554 JLINK_WriteReg(R9, 0x20000E10)  returns 0x00 (0000ms, 71164ms total)
T0D98 20952:554 JLINK_WriteReg(R10, 0x00000000)  returns 0x00 (0000ms, 71164ms total)
T0D98 20952:554 JLINK_WriteReg(R11, 0x00000000)  returns 0x00 (0000ms, 71164ms total)
T0D98 20952:554 JLINK_WriteReg(R12, 0x00000000)  returns 0x00 (0000ms, 71164ms total)
T0D98 20952:554 JLINK_WriteReg(R13 (SP), 0x20005000)  returns 0x00 (0000ms, 71164ms total)
T0D98 20952:554 JLINK_WriteReg(R14, 0x20000001)  returns 0x00 (0000ms, 71164ms total)
T0D98 20952:554 JLINK_WriteReg(R15 (PC), 0x200001C0)  returns 0x00 (0000ms, 71164ms total)
T0D98 20952:554 JLINK_WriteReg(XPSR, 0x01000000)  returns 0x00 (0000ms, 71164ms total)
T0D98 20952:554 JLINK_WriteReg(MSP, 0x20005000)  returns 0x00 (0000ms, 71164ms total)
T0D98 20952:554 JLINK_WriteReg(PSP, 0x20005000)  returns 0x00 (0000ms, 71164ms total)
T0D98 20952:554 JLINK_WriteReg(CFBP, 0x00000000)  returns 0x00 (0000ms, 71164ms total)
T0D98 20952:554 JLINK_SetBPEx(Addr = 0x20000000, Type = 0xFFFFFFF2)  returns 0x00000003 (0001ms, 71165ms total)
T0D98 20952:555 JLINK_Go() -- CPU_ReadMem(4 bytes @ 0xE0001000) -- CPU_WriteMem(4 bytes @ 0xE0001000) (0004ms, 71169ms total)
T0D98 20952:559 JLINK_IsHalted()  returns FALSE (0002ms, 71171ms total)
T0D98 20952:628 JLINK_IsHalted() -- CPU_ReadMem(2 bytes @ 0x20000000)  returns TRUE (0004ms, 71173ms total)
T0D98 20952:632 JLINK_ReadReg(R15 (PC))  returns 0x20000000 (0000ms, 71169ms total)
T0D98 20952:632 JLINK_ClrBPEx(BPHandle = 0x00000003)  returns 0x00 (0000ms, 71169ms total)
T0D98 20952:632 JLINK_ReadReg(R0)  returns 0x00000000 (0000ms, 71169ms total)
T0D98 20952:633 JLINK_WriteReg(R0, 0x10001000)  returns 0x00 (0000ms, 71169ms total)
T0D98 20952:633 JLINK_WriteReg(R1, 0x00001000)  returns 0x00 (0000ms, 71169ms total)
T0D98 20952:633 JLINK_WriteReg(R2, 0x000000FF)  returns 0x00 (0000ms, 71169ms total)
T0D98 20952:633 JLINK_WriteReg(R3, 0x00000000)  returns 0x00 (0000ms, 71169ms total)
T0D98 20952:633 JLINK_WriteReg(R4, 0x00000000)  returns 0x00 (0000ms, 71169ms total)
T0D98 20952:633 JLINK_WriteReg(R5, 0x00000000)  returns 0x00 (0000ms, 71169ms total)
T0D98 20952:633 JLINK_WriteReg(R6, 0x00000000)  returns 0x00 (0000ms, 71169ms total)
T0D98 20952:633 JLINK_WriteReg(R7, 0x00000000)  returns 0x00 (0000ms, 71169ms total)
T0D98 20952:633 JLINK_WriteReg(R8, 0x00000000)  returns 0x00 (0000ms, 71169ms total)
T0D98 20952:633 JLINK_WriteReg(R9, 0x20000E10)  returns 0x00 (0000ms, 71169ms total)
T0D98 20952:633 JLINK_WriteReg(R10, 0x00000000)  returns 0x00 (0000ms, 71169ms total)
T0D98 20952:633 JLINK_WriteReg(R11, 0x00000000)  returns 0x00 (0000ms, 71169ms total)
T0D98 20952:633 JLINK_WriteReg(R12, 0x00000000)  returns 0x00 (0000ms, 71169ms total)
T0D98 20952:633 JLINK_WriteReg(R13 (SP), 0x20005000)  returns 0x00 (0000ms, 71169ms total)
T0D98 20952:633 JLINK_WriteReg(R14, 0x20000001)  returns 0x00 (0000ms, 71169ms total)
T0D98 20952:633 JLINK_WriteReg(R15 (PC), 0x20000020)  returns 0x00 (0000ms, 71169ms total)
T0D98 20952:633 JLINK_WriteReg(XPSR, 0x01000000)  returns 0x00 (0000ms, 71169ms total)
T0D98 20952:634 JLINK_WriteReg(MSP, 0x20005000)  returns 0x00 (0000ms, 71170ms total)
T0D98 20952:634 JLINK_WriteReg(PSP, 0x20005000)  returns 0x00 (0000ms, 71170ms total)
T0D98 20952:634 JLINK_WriteReg(CFBP, 0x00000000)  returns 0x00 (0000ms, 71170ms total)
T0D98 20952:634 JLINK_SetBPEx(Addr = 0x20000000, Type = 0xFFFFFFF2)  returns 0x00000004 (0000ms, 71170ms total)
T0D98 20952:634 JLINK_Go() -- CPU_ReadMem(4 bytes @ 0xE0001000) -- CPU_WriteMem(4 bytes @ 0xE0001000) (0005ms, 71175ms total)
T0D98 20952:639 JLINK_IsHalted() -- CPU_ReadMem(2 bytes @ 0x20000000)  returns TRUE (0005ms, 71180ms total)
T0D98 20952:644 JLINK_ReadReg(R15 (PC))  returns 0x20000000 (0000ms, 71175ms total)
T0D98 20952:644 JLINK_ClrBPEx(BPHandle = 0x00000004)  returns 0x00 (0000ms, 71175ms total)
T0D98 20952:644 JLINK_ReadReg(R0)  returns 0x00000001 (0000ms, 71175ms total)
T0D98 20952:644 JLINK_WriteReg(R0, 0x10001000)  returns 0x00 (0001ms, 71176ms total)
T0D98 20952:645 JLINK_WriteReg(R1, 0x00001000)  returns 0x00 (0000ms, 71176ms total)
T0D98 20952:645 JLINK_WriteReg(R2, 0x000000FF)  returns 0x00 (0000ms, 71176ms total)
T0D98 20952:645 JLINK_WriteReg(R3, 0x00000000)  returns 0x00 (0000ms, 71176ms total)
T0D98 20952:645 JLINK_WriteReg(R4, 0x00000000)  returns 0x00 (0000ms, 71176ms total)
T0D98 20952:645 JLINK_WriteReg(R5, 0x00000000)  returns 0x00 (0000ms, 71176ms total)
T0D98 20952:645 JLINK_WriteReg(R6, 0x00000000)  returns 0x00 (0000ms, 71176ms total)
T0D98 20952:645 JLINK_WriteReg(R7, 0x00000000)  returns 0x00 (0000ms, 71176ms total)
T0D98 20952:645 JLINK_WriteReg(R8, 0x00000000)  returns 0x00 (0000ms, 71176ms total)
T0D98 20952:645 JLINK_WriteReg(R9, 0x20000E10)  returns 0x00 (0000ms, 71176ms total)
T0D98 20952:645 JLINK_WriteReg(R10, 0x00000000)  returns 0x00 (0000ms, 71176ms total)
T0D98 20952:645 JLINK_WriteReg(R11, 0x00000000)  returns 0x00 (0000ms, 71176ms total)
T0D98 20952:645 JLINK_WriteReg(R12, 0x00000000)  returns 0x00 (0000ms, 71176ms total)
T0D98 20952:645 JLINK_WriteReg(R13 (SP), 0x20005000)  returns 0x00 (0000ms, 71176ms total)
T0D98 20952:645 JLINK_WriteReg(R14, 0x20000001)  returns 0x00 (0000ms, 71176ms total)
T0D98 20952:645 JLINK_WriteReg(R15 (PC), 0x200001C0)  returns 0x00 (0000ms, 71176ms total)
T0D98 20952:645 JLINK_WriteReg(XPSR, 0x01000000)  returns 0x00 (0000ms, 71176ms total)
T0D98 20952:645 JLINK_WriteReg(MSP, 0x20005000)  returns 0x00 (0000ms, 71176ms total)
T0D98 20952:645 JLINK_WriteReg(PSP, 0x20005000)  returns 0x00 (0000ms, 71176ms total)
T0D98 20952:645 JLINK_WriteReg(CFBP, 0x00000000)  returns 0x00 (0000ms, 71176ms total)
T0D98 20952:645 JLINK_SetBPEx(Addr = 0x20000000, Type = 0xFFFFFFF2)  returns 0x00000005 (0000ms, 71176ms total)
T0D98 20952:645 JLINK_Go() -- CPU_ReadMem(4 bytes @ 0xE0001000) -- CPU_WriteMem(4 bytes @ 0xE0001000) (0004ms, 71180ms total)
T0D98 20952:649 JLINK_IsHalted()  returns FALSE (0001ms, 71181ms total)
T0D98 20952:651 JLINK_IsHalted()  returns FALSE (0001ms, 71181ms total)
T0D98 20952:653 JLINK_IsHalted()  returns FALSE (0000ms, 71180ms total)
T0D98 20952:654 JLINK_IsHalted()  returns FALSE (0000ms, 71180ms total)
T0D98 20952:655 JLINK_IsHalted()  returns FALSE (0000ms, 71180ms total)
T0D98 20952:656 JLINK_IsHalted()  returns FALSE (0000ms, 71180ms total)
T0D98 20952:657 JLINK_IsHalted()  returns FALSE (0000ms, 71180ms total)
T0D98 20952:658 JLINK_IsHalted()  returns FALSE (0000ms, 71180ms total)
T0D98 20952:659 JLINK_IsHalted()  returns FALSE (0000ms, 71180ms total)
T0D98 20952:661 JLINK_IsHalted()  returns FALSE (0002ms, 71182ms total)
T0D98 20952:664 JLINK_IsHalted()  returns FALSE (0002ms, 71182ms total)
T0D98 20952:667 JLINK_IsHalted()  returns FALSE (0001ms, 71181ms total)
T0D98 20952:669 JLINK_IsHalted()  returns FALSE (0000ms, 71180ms total)
T0D98 20952:670 JLINK_IsHalted()  returns FALSE (0000ms, 71180ms total)
T0D98 20952:671 JLINK_IsHalted()  returns FALSE (0000ms, 71180ms total)
T0D98 20952:672 JLINK_IsHalted()  returns FALSE (0001ms, 71181ms total)
T0D98 20952:674 JLINK_IsHalted()  returns FALSE (0001ms, 71181ms total)
T0D98 20952:676 JLINK_IsHalted()  returns FALSE (0002ms, 71182ms total)
T0D98 20952:679 JLINK_IsHalted()  returns FALSE (0000ms, 71180ms total)
T0D98 20952:681 JLINK_IsHalted()  returns FALSE (0001ms, 71181ms total)
T0D98 20952:683 JLINK_IsHalted()  returns FALSE (0002ms, 71182ms total)
T0D98 20952:686 JLINK_IsHalted()  returns FALSE (0001ms, 71181ms total)
T0D98 20952:688 JLINK_IsHalted()  returns FALSE (0001ms, 71181ms total)
T0D98 20952:690 JLINK_IsHalted()  returns FALSE (0000ms, 71180ms total)
T0D98 20952:691 JLINK_IsHalted()  returns FALSE (0000ms, 71180ms total)
T0D98 20952:692 JLINK_IsHalted()  returns FALSE (0001ms, 71181ms total)
T0D98 20952:694 JLINK_IsHalted()  returns FALSE (0001ms, 71181ms total)
T0D98 20952:696 JLINK_IsHalted() -- CPU_ReadMem(2 bytes @ 0x20000000)  returns TRUE (0004ms, 71184ms total)
T0D98 20952:700 JLINK_ReadReg(R15 (PC))  returns 0x20000000 (0000ms, 71180ms total)
T0D98 20952:700 JLINK_ClrBPEx(BPHandle = 0x00000005)  returns 0x00 (0000ms, 71180ms total)
T0D98 20952:700 JLINK_ReadReg(R0)  returns 0x00000000 (0000ms, 71180ms total)
T0D98 20952:701 JLINK_WriteReg(R0, 0x10002000)  returns 0x00 (0000ms, 71180ms total)
T0D98 20952:701 JLINK_WriteReg(R1, 0x00001000)  returns 0x00 (0000ms, 71180ms total)
T0D98 20952:701 JLINK_WriteReg(R2, 0x000000FF)  returns 0x00 (0000ms, 71180ms total)
T0D98 20952:701 JLINK_WriteReg(R3, 0x00000000)  returns 0x00 (0000ms, 71180ms total)
T0D98 20952:701 JLINK_WriteReg(R4, 0x00000000)  returns 0x00 (0000ms, 71180ms total)
T0D98 20952:701 JLINK_WriteReg(R5, 0x00000000)  returns 0x00 (0000ms, 71180ms total)
T0D98 20952:701 JLINK_WriteReg(R6, 0x00000000)  returns 0x00 (0000ms, 71180ms total)
T0D98 20952:701 JLINK_WriteReg(R7, 0x00000000)  returns 0x00 (0000ms, 71180ms total)
T0D98 20952:701 JLINK_WriteReg(R8, 0x00000000)  returns 0x00 (0000ms, 71180ms total)
T0D98 20952:701 JLINK_WriteReg(R9, 0x20000E10)  returns 0x00 (0000ms, 71180ms total)
T0D98 20952:701 JLINK_WriteReg(R10, 0x00000000)  returns 0x00 (0000ms, 71180ms total)
T0D98 20952:701 JLINK_WriteReg(R11, 0x00000000)  returns 0x00 (0000ms, 71180ms total)
T0D98 20952:701 JLINK_WriteReg(R12, 0x00000000)  returns 0x00 (0000ms, 71180ms total)
T0D98 20952:701 JLINK_WriteReg(R13 (SP), 0x20005000)  returns 0x00 (0000ms, 71180ms total)
T0D98 20952:701 JLINK_WriteReg(R14, 0x20000001)  returns 0x00 (0000ms, 71180ms total)
T0D98 20952:701 JLINK_WriteReg(R15 (PC), 0x20000020)  returns 0x00 (0000ms, 71180ms total)
T0D98 20952:701 JLINK_WriteReg(XPSR, 0x01000000)  returns 0x00 (0000ms, 71180ms total)
T0D98 20952:701 JLINK_WriteReg(MSP, 0x20005000)  returns 0x00 (0000ms, 71180ms total)
T0D98 20952:701 JLINK_WriteReg(PSP, 0x20005000)  returns 0x00 (0000ms, 71180ms total)
T0D98 20952:701 JLINK_WriteReg(CFBP, 0x00000000)  returns 0x00 (0000ms, 71180ms total)
T0D98 20952:701 JLINK_SetBPEx(Addr = 0x20000000, Type = 0xFFFFFFF2)  returns 0x00000006 (0000ms, 71180ms total)
T0D98 20952:701 JLINK_Go() -- CPU_ReadMem(4 bytes @ 0xE0001000) -- CPU_WriteMem(4 bytes @ 0xE0001000) (0005ms, 71185ms total)
T0D98 20952:706 JLINK_IsHalted()  returns FALSE (0001ms, 71186ms total)
T0D98 20952:708 JLINK_IsHalted() -- CPU_ReadMem(2 bytes @ 0x20000000)  returns TRUE (0005ms, 71190ms total)
T0D98 20952:713 JLINK_ReadReg(R15 (PC))  returns 0x20000000 (0000ms, 71185ms total)
T0D98 20952:713 JLINK_ClrBPEx(BPHandle = 0x00000006)  returns 0x00 (0000ms, 71185ms total)
T0D98 20952:713 JLINK_ReadReg(R0)  returns 0x00000000 (0000ms, 71185ms total)
T0D98 20952:714 JLINK_WriteReg(R0, 0x10003000)  returns 0x00 (0000ms, 71185ms total)
T0D98 20952:714 JLINK_WriteReg(R1, 0x00001000)  returns 0x00 (0000ms, 71185ms total)
T0D98 20952:714 JLINK_WriteReg(R2, 0x000000FF)  returns 0x00 (0000ms, 71185ms total)
T0D98 20952:714 JLINK_WriteReg(R3, 0x00000000)  returns 0x00 (0000ms, 71185ms total)
T0D98 20952:714 JLINK_WriteReg(R4, 0x00000000)  returns 0x00 (0000ms, 71185ms total)
T0D98 20952:714 JLINK_WriteReg(R5, 0x00000000)  returns 0x00 (0000ms, 71185ms total)
T0D98 20952:714 JLINK_WriteReg(R6, 0x00000000)  returns 0x00 (0000ms, 71185ms total)
T0D98 20952:714 JLINK_WriteReg(R7, 0x00000000)  returns 0x00 (0000ms, 71185ms total)
T0D98 20952:714 JLINK_WriteReg(R8, 0x00000000)  returns 0x00 (0000ms, 71185ms total)
T0D98 20952:714 JLINK_WriteReg(R9, 0x20000E10)  returns 0x00 (0000ms, 71185ms total)
T0D98 20952:714 JLINK_WriteReg(R10, 0x00000000)  returns 0x00 (0000ms, 71185ms total)
T0D98 20952:714 JLINK_WriteReg(R11, 0x00000000)  returns 0x00 (0000ms, 71185ms total)
T0D98 20952:714 JLINK_WriteReg(R12, 0x00000000)  returns 0x00 (0000ms, 71185ms total)
T0D98 20952:714 JLINK_WriteReg(R13 (SP), 0x20005000)  returns 0x00 (0000ms, 71185ms total)
T0D98 20952:714 JLINK_WriteReg(R14, 0x20000001)  returns 0x00 (0000ms, 71185ms total)
T0D98 20952:714 JLINK_WriteReg(R15 (PC), 0x20000020)  returns 0x00 (0000ms, 71185ms total)
T0D98 20952:714 JLINK_WriteReg(XPSR, 0x01000000)  returns 0x00 (0000ms, 71185ms total)
T0D98 20952:714 JLINK_WriteReg(MSP, 0x20005000)  returns 0x00 (0000ms, 71185ms total)
T0D98 20952:714 JLINK_WriteReg(PSP, 0x20005000)  returns 0x00 (0000ms, 71185ms total)
T0D98 20952:714 JLINK_WriteReg(CFBP, 0x00000000)  returns 0x00 (0000ms, 71185ms total)
T0D98 20952:714 JLINK_SetBPEx(Addr = 0x20000000, Type = 0xFFFFFFF2)  returns 0x00000007 (0000ms, 71185ms total)
T0D98 20952:714 JLINK_Go() -- CPU_ReadMem(4 bytes @ 0xE0001000) -- CPU_WriteMem(4 bytes @ 0xE0001000) (0004ms, 71189ms total)
T0D98 20952:718 JLINK_IsHalted()  returns FALSE (0001ms, 71190ms total)
T0D98 20952:733 JLINK_IsHalted() -- CPU_ReadMem(2 bytes @ 0x20000000)  returns TRUE (0005ms, 71194ms total)
T0D98 20952:738 JLINK_ReadReg(R15 (PC))  returns 0x20000000 (0001ms, 71190ms total)
T0D98 20952:739 JLINK_ClrBPEx(BPHandle = 0x00000007)  returns 0x00 (0000ms, 71190ms total)
T0D98 20952:739 JLINK_ReadReg(R0)  returns 0x00000000 (0000ms, 71190ms total)
T0D98 20952:740 JLINK_WriteReg(R0, 0x10004000)  returns 0x00 (0001ms, 71191ms total)
T0D98 20952:741 JLINK_WriteReg(R1, 0x00001000)  returns 0x00 (0000ms, 71191ms total)
T0D98 20952:741 JLINK_WriteReg(R2, 0x000000FF)  returns 0x00 (0000ms, 71191ms total)
T0D98 20952:742 JLINK_WriteReg(R3, 0x00000000)  returns 0x00 (0000ms, 71192ms total)
T0D98 20952:742 JLINK_WriteReg(R4, 0x00000000)  returns 0x00 (0000ms, 71192ms total)
T0D98 20952:742 JLINK_WriteReg(R5, 0x00000000)  returns 0x00 (0000ms, 71192ms total)
T0D98 20952:742 JLINK_WriteReg(R6, 0x00000000)  returns 0x00 (0000ms, 71192ms total)
T0D98 20952:742 JLINK_WriteReg(R7, 0x00000000)  returns 0x00 (0000ms, 71192ms total)
T0D98 20952:742 JLINK_WriteReg(R8, 0x00000000)  returns 0x00 (0000ms, 71192ms total)
T0D98 20952:742 JLINK_WriteReg(R9, 0x20000E10)  returns 0x00 (0000ms, 71192ms total)
T0D98 20952:742 JLINK_WriteReg(R10, 0x00000000)  returns 0x00 (0000ms, 71192ms total)
T0D98 20952:742 JLINK_WriteReg(R11, 0x00000000)  returns 0x00 (0001ms, 71193ms total)
T0D98 20952:743 JLINK_WriteReg(R12, 0x00000000)  returns 0x00 (0000ms, 71193ms total)
T0D98 20952:743 JLINK_WriteReg(R13 (SP), 0x20005000)  returns 0x00 (0000ms, 71193ms total)
T0D98 20952:743 JLINK_WriteReg(R14, 0x20000001)  returns 0x00 (0000ms, 71193ms total)
T0D98 20952:743 JLINK_WriteReg(R15 (PC), 0x20000020)  returns 0x00 (0000ms, 71193ms total)
T0D98 20952:743 JLINK_WriteReg(XPSR, 0x01000000)  returns 0x00 (0000ms, 71193ms total)
T0D98 20952:743 JLINK_WriteReg(MSP, 0x20005000)  returns 0x00 (0000ms, 71193ms total)
T0D98 20952:743 JLINK_WriteReg(PSP, 0x20005000)  returns 0x00 (0000ms, 71193ms total)
T0D98 20952:743 JLINK_WriteReg(CFBP, 0x00000000)  returns 0x00 (0001ms, 71194ms total)
T0D98 20952:744 JLINK_SetBPEx(Addr = 0x20000000, Type = 0xFFFFFFF2)  returns 0x00000008 (0000ms, 71194ms total)
T0D98 20952:744 JLINK_Go() -- CPU_ReadMem(4 bytes @ 0xE0001000) -- CPU_WriteMem(4 bytes @ 0xE0001000) (0005ms, 71199ms total)
T0D98 20952:749 JLINK_IsHalted() -- CPU_ReadMem(2 bytes @ 0x20000000)  returns TRUE (0005ms, 71204ms total)
T0D98 20952:754 JLINK_ReadReg(R15 (PC))  returns 0x20000000 (0000ms, 71199ms total)
T0D98 20952:754 JLINK_ClrBPEx(BPHandle = 0x00000008)  returns 0x00 (0000ms, 71199ms total)
T0D98 20952:754 JLINK_ReadReg(R0)  returns 0x00000001 (0000ms, 71199ms total)
T0D98 20952:754 JLINK_WriteReg(R0, 0x10004000)  returns 0x00 (0000ms, 71199ms total)
T0D98 20952:754 JLINK_WriteReg(R1, 0x00001000)  returns 0x00 (0000ms, 71199ms total)
T0D98 20952:754 JLINK_WriteReg(R2, 0x000000FF)  returns 0x00 (0000ms, 71199ms total)
T0D98 20952:754 JLINK_WriteReg(R3, 0x00000000)  returns 0x00 (0000ms, 71199ms total)
T0D98 20952:754 JLINK_WriteReg(R4, 0x00000000)  returns 0x00 (0000ms, 71199ms total)
T0D98 20952:754 JLINK_WriteReg(R5, 0x00000000)  returns 0x00 (0000ms, 71199ms total)
T0D98 20952:754 JLINK_WriteReg(R6, 0x00000000)  returns 0x00 (0000ms, 71199ms total)
T0D98 20952:754 JLINK_WriteReg(R7, 0x00000000)  returns 0x00 (0000ms, 71199ms total)
T0D98 20952:754 JLINK_WriteReg(R8, 0x00000000)  returns 0x00 (0000ms, 71199ms total)
T0D98 20952:754 JLINK_WriteReg(R9, 0x20000E10)  returns 0x00 (0000ms, 71199ms total)
T0D98 20952:754 JLINK_WriteReg(R10, 0x00000000)  returns 0x00 (0000ms, 71199ms total)
T0D98 20952:754 JLINK_WriteReg(R11, 0x00000000)  returns 0x00 (0000ms, 71199ms total)
T0D98 20952:754 JLINK_WriteReg(R12, 0x00000000)  returns 0x00 (0000ms, 71199ms total)
T0D98 20952:754 JLINK_WriteReg(R13 (SP), 0x20005000)  returns 0x00 (0000ms, 71199ms total)
T0D98 20952:754 JLINK_WriteReg(R14, 0x20000001)  returns 0x00 (0000ms, 71199ms total)
T0D98 20952:754 JLINK_WriteReg(R15 (PC), 0x200001C0)  returns 0x00 (0000ms, 71199ms total)
T0D98 20952:754 JLINK_WriteReg(XPSR, 0x01000000)  returns 0x00 (0000ms, 71199ms total)
T0D98 20952:754 JLINK_WriteReg(MSP, 0x20005000)  returns 0x00 (0000ms, 71199ms total)
T0D98 20952:754 JLINK_WriteReg(PSP, 0x20005000)  returns 0x00 (0000ms, 71199ms total)
T0D98 20952:754 JLINK_WriteReg(CFBP, 0x00000000)  returns 0x00 (0000ms, 71199ms total)
T0D98 20952:754 JLINK_SetBPEx(Addr = 0x20000000, Type = 0xFFFFFFF2)  returns 0x00000009 (0000ms, 71199ms total)
T0D98 20952:754 JLINK_Go() -- CPU_ReadMem(4 bytes @ 0xE0001000) -- CPU_WriteMem(4 bytes @ 0xE0001000) (0005ms, 71204ms total)
T0D98 20952:759 JLINK_IsHalted()  returns FALSE (0001ms, 71205ms total)
T0D98 20952:762 JLINK_IsHalted()  returns FALSE (0001ms, 71205ms total)
T0D98 20952:764 JLINK_IsHalted()  returns FALSE (0001ms, 71205ms total)
T0D98 20952:766 JLINK_IsHalted()  returns FALSE (0001ms, 71205ms total)
T0D98 20952:768 JLINK_IsHalted()  returns FALSE (0001ms, 71205ms total)
T0D98 20952:770 JLINK_IsHalted()  returns FALSE (0001ms, 71205ms total)
T0D98 20952:772 JLINK_IsHalted()  returns FALSE (0001ms, 71205ms total)
T0D98 20952:774 JLINK_IsHalted()  returns FALSE (0001ms, 71205ms total)
T0D98 20952:776 JLINK_IsHalted()  returns FALSE (0001ms, 71205ms total)
T0D98 20952:778 JLINK_IsHalted()  returns FALSE (0001ms, 71205ms total)
T0D98 20952:780 JLINK_IsHalted()  returns FALSE (0001ms, 71205ms total)
T0D98 20952:782 JLINK_IsHalted()  returns FALSE (0001ms, 71205ms total)
T0D98 20952:784 JLINK_IsHalted()  returns FALSE (0001ms, 71205ms total)
T0D98 20952:786 JLINK_IsHalted()  returns FALSE (0001ms, 71205ms total)
T0D98 20952:788 JLINK_IsHalted()  returns FALSE (0001ms, 71205ms total)
T0D98 20952:790 JLINK_IsHalted()  returns FALSE (0002ms, 71206ms total)
T0D98 20952:793 JLINK_IsHalted()  returns FALSE (0001ms, 71205ms total)
T0D98 20952:795 JLINK_IsHalted()  returns FALSE (0001ms, 71205ms total)
T0D98 20952:797 JLINK_IsHalted()  returns FALSE (0001ms, 71205ms total)
T0D98 20952:799 JLINK_IsHalted()  returns FALSE (0001ms, 71205ms total)
T0D98 20952:801 JLINK_IsHalted()  returns FALSE (0001ms, 71205ms total)
T0D98 20952:803 JLINK_IsHalted()  returns FALSE (0001ms, 71205ms total)
T0D98 20952:806 JLINK_IsHalted()  returns FALSE (0001ms, 71205ms total)
T0D98 20952:808 JLINK_IsHalted()  returns FALSE (0001ms, 71205ms total)
T0D98 20952:810 JLINK_IsHalted()  returns FALSE (0001ms, 71205ms total)
T0D98 20952:812 JLINK_IsHalted()  returns FALSE (0000ms, 71204ms total)
T0D98 20952:813 JLINK_IsHalted()  returns FALSE (0000ms, 71204ms total)
T0D98 20952:814 JLINK_IsHalted()  returns FALSE (0001ms, 71205ms total)
T0D98 20952:816 JLINK_IsHalted()  returns FALSE (0000ms, 71204ms total)
T0D98 20952:817 JLINK_IsHalted()  returns FALSE (0001ms, 71205ms total)
T0D98 20952:820 JLINK_IsHalted()  returns FALSE (0001ms, 71205ms total)
T0D98 20952:822 JLINK_IsHalted()  returns FALSE (0001ms, 71205ms total)
T0D98 20952:824 JLINK_IsHalted()  returns FALSE (0001ms, 71205ms total)
T0D98 20952:826 JLINK_IsHalted()  returns FALSE (0001ms, 71205ms total)
T0D98 20952:828 JLINK_IsHalted()  returns FALSE (0001ms, 71205ms total)
T0D98 20952:830 JLINK_IsHalted()  returns FALSE (0001ms, 71205ms total)
T0D98 20952:832 JLINK_IsHalted()  returns FALSE (0001ms, 71205ms total)
T0D98 20952:834 JLINK_IsHalted()  returns FALSE (0001ms, 71205ms total)
T0D98 20952:836 JLINK_IsHalted()  returns FALSE (0001ms, 71205ms total)
T0D98 20952:838 JLINK_IsHalted()  returns FALSE (0001ms, 71205ms total)
T0D98 20952:840 JLINK_IsHalted()  returns FALSE (0001ms, 71205ms total)
T0D98 20952:842 JLINK_IsHalted()  returns FALSE (0001ms, 71205ms total)
T0D98 20952:844 JLINK_IsHalted()  returns FALSE (0001ms, 71205ms total)
T0D98 20952:846 JLINK_IsHalted()  returns FALSE (0001ms, 71205ms total)
T0D98 20952:848 JLINK_IsHalted()  returns FALSE (0001ms, 71205ms total)
T0D98 20952:850 JLINK_IsHalted()  returns FALSE (0006ms, 71210ms total)
T0D98 20952:857 JLINK_IsHalted()  returns FALSE (0001ms, 71205ms total)
T0D98 20952:859 JLINK_IsHalted()  returns FALSE (0001ms, 71205ms total)
T0D98 20952:861 JLINK_IsHalted()  returns FALSE (0001ms, 71205ms total)
T0D98 20952:863 JLINK_IsHalted()  returns FALSE (0001ms, 71205ms total)
T0D98 20952:867 JLINK_IsHalted()  returns FALSE (0001ms, 71205ms total)
T0D98 20952:869 JLINK_IsHalted()  returns FALSE (0001ms, 71205ms total)
T0D98 20952:871 JLINK_IsHalted()  returns FALSE (0001ms, 71205ms total)
T0D98 20952:873 JLINK_IsHalted()  returns FALSE (0001ms, 71205ms total)
T0D98 20952:875 JLINK_IsHalted()  returns FALSE (0001ms, 71205ms total)
T0D98 20952:877 JLINK_IsHalted()  returns FALSE (0001ms, 71205ms total)
T0D98 20952:879 JLINK_IsHalted()  returns FALSE (0001ms, 71205ms total)
T0D98 20952:881 JLINK_IsHalted()  returns FALSE (0001ms, 71205ms total)
T0D98 20952:883 JLINK_IsHalted()  returns FALSE (0001ms, 71205ms total)
T0D98 20952:885 JLINK_IsHalted()  returns FALSE (0001ms, 71205ms total)
T0D98 20952:887 JLINK_IsHalted()  returns FALSE (0001ms, 71205ms total)
T0D98 20952:889 JLINK_IsHalted()  returns FALSE (0002ms, 71206ms total)
T0D98 20952:892 JLINK_IsHalted()  returns FALSE (0001ms, 71205ms total)
T0D98 20952:894 JLINK_IsHalted()  returns FALSE (0001ms, 71205ms total)
T0D98 20952:896 JLINK_IsHalted()  returns FALSE (0001ms, 71205ms total)
T0D98 20952:898 JLINK_IsHalted()  returns FALSE (0000ms, 71204ms total)
T0D98 20952:899 JLINK_IsHalted()  returns FALSE (0001ms, 71205ms total)
T0D98 20952:901 JLINK_IsHalted() -- CPU_ReadMem(2 bytes @ 0x20000000)  returns TRUE (0006ms, 71210ms total)
T0D98 20952:907 JLINK_ReadReg(R15 (PC))  returns 0x20000000 (0000ms, 71204ms total)
T0D98 20952:907 JLINK_ClrBPEx(BPHandle = 0x00000009)  returns 0x00 (0000ms, 71204ms total)
T0D98 20952:907 JLINK_ReadReg(R0)  returns 0x00000000 (0000ms, 71204ms total)
T0D98 20952:909 JLINK_WriteReg(R0, 0x10005000)  returns 0x00 (0000ms, 71205ms total)
T0D98 20952:909 JLINK_WriteReg(R1, 0x00001000)  returns 0x00 (0000ms, 71205ms total)
T0D98 20952:909 JLINK_WriteReg(R2, 0x000000FF)  returns 0x00 (0001ms, 71206ms total)
T0D98 20952:910 JLINK_WriteReg(R3, 0x00000000)  returns 0x00 (0000ms, 71206ms total)
T0D98 20952:910 JLINK_WriteReg(R4, 0x00000000)  returns 0x00 (0000ms, 71206ms total)
T0D98 20952:910 JLINK_WriteReg(R5, 0x00000000)  returns 0x00 (0000ms, 71206ms total)
T0D98 20952:910 JLINK_WriteReg(R6, 0x00000000)  returns 0x00 (0000ms, 71206ms total)
T0D98 20952:910 JLINK_WriteReg(R7, 0x00000000)  returns 0x00 (0000ms, 71206ms total)
T0D98 20952:910 JLINK_WriteReg(R8, 0x00000000)  returns 0x00 (0000ms, 71206ms total)
T0D98 20952:910 JLINK_WriteReg(R9, 0x20000E10)  returns 0x00 (0000ms, 71206ms total)
T0D98 20952:910 JLINK_WriteReg(R10, 0x00000000)  returns 0x00 (0000ms, 71206ms total)
T0D98 20952:911 JLINK_WriteReg(R11, 0x00000000)  returns 0x00 (0000ms, 71207ms total)
T0D98 20952:911 JLINK_WriteReg(R12, 0x00000000)  returns 0x00 (0000ms, 71207ms total)
T0D98 20952:911 JLINK_WriteReg(R13 (SP), 0x20005000)  returns 0x00 (0000ms, 71207ms total)
T0D98 20952:911 JLINK_WriteReg(R14, 0x20000001)  returns 0x00 (0000ms, 71207ms total)
T0D98 20952:911 JLINK_WriteReg(R15 (PC), 0x20000020)  returns 0x00 (0000ms, 71207ms total)
T0D98 20952:911 JLINK_WriteReg(XPSR, 0x01000000)  returns 0x00 (0000ms, 71207ms total)
T0D98 20952:911 JLINK_WriteReg(MSP, 0x20005000)  returns 0x00 (0000ms, 71207ms total)
T0D98 20952:911 JLINK_WriteReg(PSP, 0x20005000)  returns 0x00 (0000ms, 71207ms total)
T0D98 20952:911 JLINK_WriteReg(CFBP, 0x00000000)  returns 0x00 (0001ms, 71208ms total)
T0D98 20952:912 JLINK_SetBPEx(Addr = 0x20000000, Type = 0xFFFFFFF2)  returns 0x0000000A (0000ms, 71208ms total)
T0D98 20952:912 JLINK_Go() -- CPU_ReadMem(4 bytes @ 0xE0001000) -- CPU_WriteMem(4 bytes @ 0xE0001000) (0005ms, 71213ms total)
T0D98 20952:917 JLINK_IsHalted()  returns FALSE (0002ms, 71215ms total)
T0D98 20952:920 JLINK_IsHalted() -- CPU_ReadMem(2 bytes @ 0x20000000)  returns TRUE (0004ms, 71217ms total)
T0D98 20952:924 JLINK_ReadReg(R15 (PC))  returns 0x20000000 (0001ms, 71214ms total)
T0D98 20952:925 JLINK_ClrBPEx(BPHandle = 0x0000000A)  returns 0x00 (0000ms, 71214ms total)
T0D98 20952:925 JLINK_ReadReg(R0)  returns 0x00000000 (0000ms, 71214ms total)
T0D98 20952:928 JLINK_WriteReg(R0, 0x10006000)  returns 0x00 (0000ms, 71214ms total)
T0D98 20952:928 JLINK_WriteReg(R1, 0x00001000)  returns 0x00 (0000ms, 71214ms total)
T0D98 20952:928 JLINK_WriteReg(R2, 0x000000FF)  returns 0x00 (0000ms, 71214ms total)
T0D98 20952:928 JLINK_WriteReg(R3, 0x00000000)  returns 0x00 (0000ms, 71214ms total)
T0D98 20952:928 JLINK_WriteReg(R4, 0x00000000)  returns 0x00 (0001ms, 71215ms total)
T0D98 20952:929 JLINK_WriteReg(R5, 0x00000000)  returns 0x00 (0000ms, 71215ms total)
T0D98 20952:929 JLINK_WriteReg(R6, 0x00000000)  returns 0x00 (0000ms, 71215ms total)
T0D98 20952:929 JLINK_WriteReg(R7, 0x00000000)  returns 0x00 (0000ms, 71215ms total)
T0D98 20952:929 JLINK_WriteReg(R8, 0x00000000)  returns 0x00 (0000ms, 71215ms total)
T0D98 20952:929 JLINK_WriteReg(R9, 0x20000E10)  returns 0x00 (0000ms, 71215ms total)
T0D98 20952:929 JLINK_WriteReg(R10, 0x00000000)  returns 0x00 (0000ms, 71215ms total)
T0D98 20952:929 JLINK_WriteReg(R11, 0x00000000)  returns 0x00 (0000ms, 71215ms total)
T0D98 20952:929 JLINK_WriteReg(R12, 0x00000000)  returns 0x00 (0001ms, 71216ms total)
T0D98 20952:930 JLINK_WriteReg(R13 (SP), 0x20005000)  returns 0x00 (0000ms, 71216ms total)
T0D98 20952:930 JLINK_WriteReg(R14, 0x20000001)  returns 0x00 (0000ms, 71216ms total)
T0D98 20952:930 JLINK_WriteReg(R15 (PC), 0x20000020)  returns 0x00 (0000ms, 71216ms total)
T0D98 20952:930 JLINK_WriteReg(XPSR, 0x01000000)  returns 0x00 (0000ms, 71216ms total)
T0D98 20952:930 JLINK_WriteReg(MSP, 0x20005000)  returns 0x00 (0000ms, 71216ms total)
T0D98 20952:930 JLINK_WriteReg(PSP, 0x20005000)  returns 0x00 (0000ms, 71216ms total)
T0D98 20952:930 JLINK_WriteReg(CFBP, 0x00000000)  returns 0x00 (0000ms, 71216ms total)
T0D98 20952:930 JLINK_SetBPEx(Addr = 0x20000000, Type = 0xFFFFFFF2)  returns 0x0000000B (0000ms, 71216ms total)
T0D98 20952:930 JLINK_Go() -- CPU_ReadMem(4 bytes @ 0xE0001000) -- CPU_WriteMem(4 bytes @ 0xE0001000) (0004ms, 71220ms total)
T0D98 20952:934 JLINK_IsHalted()  returns FALSE (0001ms, 71221ms total)
T0D98 20952:937 JLINK_IsHalted() -- CPU_ReadMem(2 bytes @ 0x20000000)  returns TRUE (0004ms, 71224ms total)
T0D98 20952:941 JLINK_ReadReg(R15 (PC))  returns 0x20000000 (0000ms, 71220ms total)
T0D98 20952:941 JLINK_ClrBPEx(BPHandle = 0x0000000B)  returns 0x00 (0000ms, 71220ms total)
T0D98 20952:941 JLINK_ReadReg(R0)  returns 0x00000000 (0000ms, 71220ms total)
T0D98 20952:942 JLINK_WriteReg(R0, 0x10007000)  returns 0x00 (0000ms, 71220ms total)
T0D98 20952:942 JLINK_WriteReg(R1, 0x00001000)  returns 0x00 (0000ms, 71220ms total)
T0D98 20952:942 JLINK_WriteReg(R2, 0x000000FF)  returns 0x00 (0000ms, 71220ms total)
T0D98 20952:942 JLINK_WriteReg(R3, 0x00000000)  returns 0x00 (0000ms, 71220ms total)
T0D98 20952:942 JLINK_WriteReg(R4, 0x00000000)  returns 0x00 (0000ms, 71220ms total)
T0D98 20952:942 JLINK_WriteReg(R5, 0x00000000)  returns 0x00 (0000ms, 71220ms total)
T0D98 20952:942 JLINK_WriteReg(R6, 0x00000000)  returns 0x00 (0000ms, 71220ms total)
T0D98 20952:942 JLINK_WriteReg(R7, 0x00000000)  returns 0x00 (0000ms, 71220ms total)
T0D98 20952:942 JLINK_WriteReg(R8, 0x00000000)  returns 0x00 (0000ms, 71220ms total)
T0D98 20952:942 JLINK_WriteReg(R9, 0x20000E10)  returns 0x00 (0000ms, 71220ms total)
T0D98 20952:942 JLINK_WriteReg(R10, 0x00000000)  returns 0x00 (0000ms, 71220ms total)
T0D98 20952:942 JLINK_WriteReg(R11, 0x00000000)  returns 0x00 (0000ms, 71220ms total)
T0D98 20952:942 JLINK_WriteReg(R12, 0x00000000)  returns 0x00 (0000ms, 71220ms total)
T0D98 20952:942 JLINK_WriteReg(R13 (SP), 0x20005000)  returns 0x00 (0000ms, 71220ms total)
T0D98 20952:942 JLINK_WriteReg(R14, 0x20000001)  returns 0x00 (0000ms, 71220ms total)
T0D98 20952:942 JLINK_WriteReg(R15 (PC), 0x20000020)  returns 0x00 (0000ms, 71220ms total)
T0D98 20952:942 JLINK_WriteReg(XPSR, 0x01000000)  returns 0x00 (0000ms, 71220ms total)
T0D98 20952:942 JLINK_WriteReg(MSP, 0x20005000)  returns 0x00 (0000ms, 71220ms total)
T0D98 20952:942 JLINK_WriteReg(PSP, 0x20005000)  returns 0x00 (0000ms, 71220ms total)
T0D98 20952:942 JLINK_WriteReg(CFBP, 0x00000000)  returns 0x00 (0000ms, 71220ms total)
T0D98 20952:942 JLINK_SetBPEx(Addr = 0x20000000, Type = 0xFFFFFFF2)  returns 0x0000000C (0000ms, 71220ms total)
T0D98 20952:942 JLINK_Go() -- CPU_ReadMem(4 bytes @ 0xE0001000) -- CPU_WriteMem(4 bytes @ 0xE0001000) (0005ms, 71225ms total)
T0D98 20952:947 JLINK_IsHalted() -- CPU_ReadMem(2 bytes @ 0x20000000)  returns TRUE (0005ms, 71230ms total)
T0D98 20952:952 JLINK_ReadReg(R15 (PC))  returns 0x20000000 (0000ms, 71225ms total)
T0D98 20952:952 JLINK_ClrBPEx(BPHandle = 0x0000000C)  returns 0x00 (0000ms, 71225ms total)
T0D98 20952:952 JLINK_ReadReg(R0)  returns 0x00000001 (0000ms, 71225ms total)
T0D98 20952:952 JLINK_WriteReg(R0, 0x10007000)  returns 0x00 (0000ms, 71225ms total)
T0D98 20952:952 JLINK_WriteReg(R1, 0x00001000)  returns 0x00 (0000ms, 71225ms total)
T0D98 20952:952 JLINK_WriteReg(R2, 0x000000FF)  returns 0x00 (0000ms, 71225ms total)
T0D98 20952:952 JLINK_WriteReg(R3, 0x00000000)  returns 0x00 (0000ms, 71225ms total)
T0D98 20952:952 JLINK_WriteReg(R4, 0x00000000)  returns 0x00 (0000ms, 71225ms total)
T0D98 20952:952 JLINK_WriteReg(R5, 0x00000000)  returns 0x00 (0000ms, 71225ms total)
T0D98 20952:952 JLINK_WriteReg(R6, 0x00000000)  returns 0x00 (0000ms, 71225ms total)
T0D98 20952:952 JLINK_WriteReg(R7, 0x00000000)  returns 0x00 (0000ms, 71225ms total)
T0D98 20952:952 JLINK_WriteReg(R8, 0x00000000)  returns 0x00 (0000ms, 71225ms total)
T0D98 20952:952 JLINK_WriteReg(R9, 0x20000E10)  returns 0x00 (0000ms, 71225ms total)
T0D98 20952:952 JLINK_WriteReg(R10, 0x00000000)  returns 0x00 (0000ms, 71225ms total)
T0D98 20952:952 JLINK_WriteReg(R11, 0x00000000)  returns 0x00 (0000ms, 71225ms total)
T0D98 20952:952 JLINK_WriteReg(R12, 0x00000000)  returns 0x00 (0000ms, 71225ms total)
T0D98 20952:952 JLINK_WriteReg(R13 (SP), 0x20005000)  returns 0x00 (0000ms, 71225ms total)
T0D98 20952:952 JLINK_WriteReg(R14, 0x20000001)  returns 0x00 (0000ms, 71225ms total)
T0D98 20952:952 JLINK_WriteReg(R15 (PC), 0x200001C0)  returns 0x00 (0000ms, 71225ms total)
T0D98 20952:952 JLINK_WriteReg(XPSR, 0x01000000)  returns 0x00 (0000ms, 71225ms total)
T0D98 20952:952 JLINK_WriteReg(MSP, 0x20005000)  returns 0x00 (0000ms, 71225ms total)
T0D98 20952:952 JLINK_WriteReg(PSP, 0x20005000)  returns 0x00 (0001ms, 71226ms total)
T0D98 20952:953 JLINK_WriteReg(CFBP, 0x00000000)  returns 0x00 (0000ms, 71226ms total)
T0D98 20952:953 JLINK_SetBPEx(Addr = 0x20000000, Type = 0xFFFFFFF2)  returns 0x0000000D (0000ms, 71226ms total)
T0D98 20952:953 JLINK_Go() -- CPU_ReadMem(4 bytes @ 0xE0001000) -- CPU_WriteMem(4 bytes @ 0xE0001000) (0005ms, 71231ms total)
T0D98 20952:958 JLINK_IsHalted()  returns FALSE (0001ms, 71232ms total)
T0D98 20952:960 JLINK_IsHalted()  returns FALSE (0001ms, 71232ms total)
T0D98 20952:962 JLINK_IsHalted()  returns FALSE (0001ms, 71232ms total)
T0D98 20952:964 JLINK_IsHalted()  returns FALSE (0001ms, 71232ms total)
T0D98 20952:966 JLINK_IsHalted()  returns FALSE (0001ms, 71232ms total)
T0D98 20952:968 JLINK_IsHalted()  returns FALSE (0001ms, 71232ms total)
T0D98 20952:970 JLINK_IsHalted()  returns FALSE (0001ms, 71232ms total)
T0D98 20952:972 JLINK_IsHalted()  returns FALSE (0001ms, 71232ms total)
T0D98 20952:975 JLINK_IsHalted()  returns FALSE (0001ms, 71232ms total)
T0D98 20952:977 JLINK_IsHalted()  returns FALSE (0001ms, 71232ms total)
T0D98 20952:979 JLINK_IsHalted()  returns FALSE (0001ms, 71232ms total)
T0D98 20952:981 JLINK_IsHalted()  returns FALSE (0001ms, 71232ms total)
T0D98 20952:983 JLINK_IsHalted()  returns FALSE (0001ms, 71232ms total)
T0D98 20952:985 JLINK_IsHalted()  returns FALSE (0001ms, 71232ms total)
T0D98 20952:987 JLINK_IsHalted()  returns FALSE (0001ms, 71232ms total)
T0D98 20952:989 JLINK_IsHalted()  returns FALSE (0002ms, 71233ms total)
T0D98 20952:992 JLINK_IsHalted()  returns FALSE (0000ms, 71231ms total)
T0D98 20952:993 JLINK_IsHalted()  returns FALSE (0000ms, 71231ms total)
T0D98 20952:994 JLINK_IsHalted()  returns FALSE (0000ms, 71231ms total)
T0D98 20952:995 JLINK_IsHalted()  returns FALSE (0000ms, 71231ms total)
T0D98 20952:996 JLINK_IsHalted()  returns FALSE (0000ms, 71231ms total)
T0D98 20952:997 JLINK_IsHalted()  returns FALSE (0000ms, 71231ms total)
T0D98 20952:998 JLINK_IsHalted()  returns FALSE (0000ms, 71231ms total)
T0D98 20952:999 JLINK_IsHalted()  returns FALSE (0000ms, 71231ms total)
T0D98 20953:000 JLINK_IsHalted()  returns FALSE (0000ms, 71231ms total)
T0D98 20953:001 JLINK_IsHalted()  returns FALSE (0001ms, 71232ms total)
T0D98 20953:003 JLINK_IsHalted()  returns FALSE (0000ms, 71231ms total)
T0D98 20953:004 JLINK_IsHalted()  returns FALSE (0000ms, 71231ms total)
T0D98 20953:005 JLINK_IsHalted()  returns FALSE (0000ms, 71231ms total)
T0D98 20953:006 JLINK_IsHalted()  returns FALSE (0000ms, 71231ms total)
T0D98 20953:007 JLINK_IsHalted()  returns FALSE (0000ms, 71231ms total)
T0D98 20953:008 JLINK_IsHalted()  returns FALSE (0000ms, 71231ms total)
T0D98 20953:009 JLINK_IsHalted()  returns FALSE (0000ms, 71231ms total)
T0D98 20953:010 JLINK_IsHalted()  returns FALSE (0000ms, 71231ms total)
T0D98 20953:011 JLINK_IsHalted()  returns FALSE (0000ms, 71231ms total)
T0D98 20953:012 JLINK_IsHalted()  returns FALSE (0001ms, 71232ms total)
T0D98 20953:014 JLINK_IsHalted()  returns FALSE (0000ms, 71231ms total)
T0D98 20953:015 JLINK_IsHalted()  returns FALSE (0000ms, 71231ms total)
T0D98 20953:016 JLINK_IsHalted()  returns FALSE (0000ms, 71231ms total)
T0D98 20953:017 JLINK_IsHalted()  returns FALSE (0000ms, 71231ms total)
T0D98 20953:018 JLINK_IsHalted()  returns FALSE (0000ms, 71231ms total)
T0D98 20953:019 JLINK_IsHalted()  returns FALSE (0000ms, 71231ms total)
T0D98 20953:020 JLINK_IsHalted()  returns FALSE (0001ms, 71232ms total)
T0D98 20953:022 JLINK_IsHalted()  returns FALSE (0004ms, 71235ms total)
T0D98 20953:027 JLINK_IsHalted()  returns FALSE (0002ms, 71233ms total)
T0D98 20953:030 JLINK_IsHalted()  returns FALSE (0001ms, 71232ms total)
T0D98 20953:032 JLINK_IsHalted()  returns FALSE (0001ms, 71232ms total)
T0D98 20953:034 JLINK_IsHalted()  returns FALSE (0001ms, 71232ms total)
T0D98 20953:036 JLINK_IsHalted()  returns FALSE (0001ms, 71232ms total)
T0D98 20953:043 JLINK_IsHalted()  returns FALSE (0001ms, 71232ms total)
T0D98 20953:045 JLINK_IsHalted()  returns FALSE (0001ms, 71232ms total)
T0D98 20953:047 JLINK_IsHalted()  returns FALSE (0001ms, 71232ms total)
T0D98 20953:049 JLINK_IsHalted()  returns FALSE (0001ms, 71232ms total)
T0D98 20953:051 JLINK_IsHalted()  returns FALSE (0001ms, 71232ms total)
T0D98 20953:053 JLINK_IsHalted()  returns FALSE (0001ms, 71232ms total)
T0D98 20953:055 JLINK_IsHalted()  returns FALSE (0001ms, 71232ms total)
T0D98 20953:057 JLINK_IsHalted()  returns FALSE (0001ms, 71232ms total)
T0D98 20953:059 JLINK_IsHalted()  returns FALSE (0001ms, 71232ms total)
T0D98 20953:061 JLINK_IsHalted()  returns FALSE (0001ms, 71232ms total)
T0D98 20953:063 JLINK_IsHalted()  returns FALSE (0001ms, 71232ms total)
T0D98 20953:065 JLINK_IsHalted()  returns FALSE (0001ms, 71232ms total)
T0D98 20953:067 JLINK_IsHalted()  returns FALSE (0001ms, 71232ms total)
T0D98 20953:069 JLINK_IsHalted()  returns FALSE (0001ms, 71232ms total)
T0D98 20953:071 JLINK_IsHalted()  returns FALSE (0001ms, 71232ms total)
T0D98 20953:073 JLINK_IsHalted()  returns FALSE (0001ms, 71232ms total)
T0D98 20953:075 JLINK_IsHalted()  returns FALSE (0001ms, 71232ms total)
T0D98 20953:077 JLINK_IsHalted()  returns FALSE (0001ms, 71232ms total)
T0D98 20953:079 JLINK_IsHalted()  returns FALSE (0001ms, 71232ms total)
T0D98 20953:081 JLINK_IsHalted()  returns FALSE (0001ms, 71232ms total)
T0D98 20953:083 JLINK_IsHalted()  returns FALSE (0001ms, 71232ms total)
T0D98 20953:085 JLINK_IsHalted()  returns FALSE (0002ms, 71233ms total)
T0D98 20953:088 JLINK_IsHalted()  returns FALSE (0001ms, 71232ms total)
T0D98 20953:090 JLINK_IsHalted()  returns FALSE (0001ms, 71232ms total)
